! created by martin at Mon Apr 11 21:50:44 BST 2022
! generated using vna/J Version 3.4.8
# Hz S DB R 50
2000000000 -2.01166451 96.09645639
2000987166 -1.98459524 94.62711285
2001974332 -1.95379158 93.11294209
2002961498 -1.97279992 92.25684447
2003948664 -1.90893432 90.65701942
2004935830 -1.93462444 89.51105788
2005922996 -1.91974907 88.12116186
2006910162 -1.92472867 86.45328605
2007897328 -1.90790949 85.03123586
2008884494 -1.88865249 83.39887551
2009871660 -1.90143804 81.96963705
2010858826 -1.90379328 80.74721877
2011845992 -1.86761496 79.55641291
2012833158 -1.88539907 78.18482270
2013820324 -1.89109701 76.69996508
2014807490 -1.89578277 75.01771700
2015794656 -1.89584306 73.44321357
2016781822 -1.84157557 72.10492479
2017768988 -1.78199232 70.86702915
2018756154 -1.73890298 69.48744133
2019743320 -1.71852142 67.68082920
2020730486 -1.69027076 66.04155193
2021717652 -1.67319367 64.53967914
2022704818 -1.62625867 63.42085404
2023691984 -1.59761208 62.28293553
2024679150 -1.57541389 61.19329572
2025666316 -1.54563336 60.09544946
2026653482 -1.53610683 59.05429721
2027640648 -1.52913682 57.97889244
2028627814 -1.50670737 56.46557437
2029614980 -1.48495322 55.01677422
2030602146 -1.48068241 53.69401797
2031589312 -1.47302764 52.56719807
2032576478 -1.46796733 51.48120023
2033563644 -1.44319496 50.23742141
2034550810 -1.38955706 48.96368656
2035537976 -1.33738404 47.70445642
2036525142 -1.32247131 46.39662125
2037512308 -1.35044340 45.22582007
2038499474 -1.39703128 44.08930570
2039486640 -1.41417875 42.95850812
2040473806 -1.34436724 41.91911786
2041460972 -1.26432704 40.98040155
2042448138 -1.21716574 39.99664060
2043435304 -1.23059752 39.06867139
2044422470 -1.22890216 38.06522706
2045409636 -1.22964883 37.01392791
2046396802 -1.22835559 35.90396471
2047383968 -1.22531978 34.77698947
2048371134 -1.21585690 33.68971449
2049358300 -1.19730657 32.49402610
2050345466 -1.20369739 31.33853460
2051332632 -1.18589148 30.14788202
2052319798 -1.18314155 29.00793925
2053306964 -1.18440978 27.93988205
2054294130 -1.18795342 26.71323590
2055281296 -1.19746579 25.45130315
2056268462 -1.23038562 24.26310844
2057255628 -1.27267240 23.05729114
2058242794 -1.27017898 22.03246355
2059229960 -1.26920760 21.04870276
2060217126 -1.27843493 19.90463482
2061204292 -1.31147166 18.69733854
2062191458 -1.34349097 17.42084911
2063178624 -1.37958463 16.08926496
2064165790 -1.38206073 14.93103586
2065152956 -1.38869494 13.80723405
2066140122 -1.37893005 12.54734991
2067127288 -1.40028425 11.39008302
2068114454 -1.43396322 10.21960455
2069101620 -1.46030501 9.08907167
2070088786 -1.45555215 7.68997884
2071075952 -1.46060660 6.26949049
2072063118 -1.48818328 4.97343553
2073050284 -1.51806976 3.73351501
2074037450 -1.54857622 2.43778500
2075024616 -1.58360014 0.96855778
2076011782 -1.59886537 -0.31258571
2076998948 -1.58134049 -1.50274250
2077986114 -1.57825248 -2.71312066
2078973280 -1.59392337 -4.06633983
2079960446 -1.60967716 -5.42027715
2080947612 -1.62367723 -6.82025150
2081934778 -1.63568511 -8.34628657
2082921944 -1.63933481 -9.63045524
2083909110 -1.64014405 -10.94488272
2084896276 -1.64895177 -12.22897133
2085883442 -1.67340757 -13.55824349
2086870608 -1.66702588 -14.76723923
2087857774 -1.66318378 -16.06237251
2088844940 -1.67015542 -17.50040502
2089832106 -1.66984371 -18.99974423
2090819272 -1.68179380 -20.54463719
2091806438 -1.68399223 -21.91085316
2092793604 -1.71240364 -23.21813077
2093780770 -1.73277858 -24.66038488
2094767936 -1.71263394 -26.05035862
2095755102 -1.66951369 -27.52558856
2096742268 -1.65997085 -28.79426970
2097729434 -1.68088666 -29.84210709
2098716600 -1.71578471 -30.99744447
2099703766 -1.74970367 -32.24184063
2100690932 -1.73809843 -33.83445384
2101678098 -1.72492305 -35.29290495
2102665264 -1.72228963 -36.66405385
2103652430 -1.75450660 -37.96354252
2104639596 -1.78874027 -39.42933518
2105626762 -1.84170489 -40.90672510
2106613928 -1.85195395 -42.06934014
2107601094 -1.83987004 -43.38565149
2108588260 -1.84320945 -44.37489060
2109575426 -1.80763804 -45.63868373
2110562592 -1.79084885 -47.15380795
2111549758 -1.73683814 -48.68070151
2112536924 -1.79427727 -50.43332557
2113524090 -1.85387597 -52.16353800
2114511256 -1.90552641 -53.68345829
2115498422 -1.95891835 -55.05849104
2116485588 -1.98086928 -56.19876520
2117472754 -1.99270827 -57.56871545
2118459920 -1.99512103 -58.97117851
2119447086 -2.01596791 -60.29618939
2120434252 -2.06758950 -61.68780600
2121421418 -2.11774266 -63.12326510
2122408584 -2.15391149 -64.55735651
2123395750 -2.22877394 -65.83119520
2124382916 -2.28500592 -67.59754711
2125370082 -2.32894712 -69.45996173
2126357248 -2.35141217 -71.44990534
2127344414 -2.35503182 -73.13448693
2128331580 -2.36827840 -74.57686682
2129318746 -2.41787861 -75.95874394
2130305912 -2.44784133 -77.88877222
2131293078 -2.50861390 -79.35366053
2132280244 -2.57603428 -80.86973981
2133267410 -2.60959697 -82.80985961
2134254576 -2.61522968 -84.70638226
2135241742 -2.62775591 -86.45213427
2136228908 -2.69595720 -87.86845841
2137216074 -2.78177071 -89.21537365
2138203240 -2.88510983 -90.81960753
2139190406 -2.89992933 -92.88593437
2140177572 -2.87778224 -95.04684502
2141164738 -2.84910086 -97.34848308
2142151904 -2.87616616 -99.42539534
2143139070 -2.99139421 -101.12448016
2144126236 -3.12971459 -102.73743001
2145113402 -3.15876251 -104.56201384
2146100568 -3.15860357 -106.53446942
2147087734 -3.18462413 -108.71925588
2148074900 -3.22620160 -110.62948373
2149062066 -3.21148607 -112.04720531
2150049232 -3.14347220 -113.56524360
2151036398 -3.12662788 -115.46114841
2152023564 -3.21115545 -117.43369469
2153010730 -3.31506050 -119.65548945
2153997896 -3.32112042 -122.04744691
2154985062 -3.27646237 -124.08697734
2155972228 -3.27639600 -125.74558396
2156959394 -3.26826883 -127.88584297
2157946560 -3.27318907 -130.36019873
2158933726 -3.25790092 -132.62565557
2159920892 -3.24987969 -134.67251182
2160908058 -3.27257431 -136.65479814
2161895224 -3.33391541 -138.80267043
2162882390 -3.31610950 -141.01254369
2163869556 -3.26455261 -142.87858561
2164856722 -3.21142785 -144.97287343
2165843888 -3.12410023 -146.79132363
2166831054 -3.16959536 -148.75030442
2167818220 -3.22306457 -150.71248543
2168805386 -3.22882552 -152.89688674
2169792552 -3.18164601 -154.79265686
2170779718 -3.17240734 -156.88582920
2171766884 -3.13619012 -158.90729837
2172754050 -3.12379741 -160.68323437
2173741216 -3.06943798 -162.37216196
2174728382 -3.03990479 -163.98237528
2175715548 -2.99629065 -166.04641712
2176702714 -2.97143434 -168.19439368
2177689880 -2.93496024 -170.19868857
2178677046 -2.89530768 -171.98424350
2179664212 -2.86837071 -173.71873464
2180651378 -2.88226279 -175.68954625
2181638544 -2.88488214 -177.75411601
2182625710 -2.84067263 -179.59185838
2183612876 -2.79188869 178.59118526
2184600042 -2.76996782 177.17868905
2185587208 -2.72467942 175.38178516
2186574374 -2.70542835 173.75224587
2187561540 -2.71885444 171.96737910
2188548706 -2.75568439 170.28071430
2189535872 -2.75179428 168.45474475
2190523038 -2.68843376 166.76566089
2191510204 -2.59934130 164.91541633
2192497370 -2.54350025 162.86306022
2193484536 -2.50966154 161.01546790
2194471702 -2.49283187 159.46679752
2195458868 -2.49330220 157.98689709
2196446034 -2.53603548 156.39320612
2197433200 -2.57994224 154.59649637
2198420366 -2.60545975 152.89879336
2199407532 -2.59643515 151.13710147
2200394698 -2.56970870 149.38159335
2201381864 -2.55729725 147.39985368
2202369030 -2.54281183 145.69548060
2203356196 -2.54143203 144.10021501
2204343362 -2.56929927 142.38549327
2205330528 -2.57372913 140.64878050
2206317694 -2.55994401 138.89913236
2207304860 -2.55242117 137.10396061
2208292026 -2.50073606 135.29419481
2209279192 -2.44457580 133.56336817
2210266358 -2.41791423 132.14427723
2211253524 -2.47765711 130.43555122
2212240690 -2.55079831 128.57400936
2213227856 -2.65084479 126.87306018
2214215022 -2.67355459 124.89137798
2215202188 -2.64021921 123.04342721
2216189354 -2.63110963 121.23484207
2217176520 -2.59921508 119.45206473
2218163686 -2.60613378 117.46654404
2219150852 -2.59309945 115.37922956
2220138018 -2.56573734 113.37089101
2221125184 -2.53025560 111.65891794
2222112350 -2.50307976 109.87617824
2223099516 -2.49408452 108.00663951
2224086682 -2.48664974 106.39147460
2225073848 -2.47868421 104.73747182
2226061014 -2.45736832 103.07320830
2227048180 -2.41330136 101.47483654
2228035346 -2.36384776 99.85806524
2229022512 -2.34579142 98.08310123
2230009678 -2.33114309 96.43039411
2230996844 -2.34445899 94.57650409
2231984010 -2.33821398 92.64301757
2232971176 -2.29006866 91.08122291
2233958342 -2.22964839 89.45293758
2234945508 -2.17338468 87.97990506
2235932674 -2.14098867 86.61259943
2236919840 -2.13122156 85.09386269
2237907006 -2.14930364 83.59815879
2238894172 -2.15466859 82.15100504
2239881338 -2.13470564 80.52806101
2240868504 -2.12761632 79.05743843
2241855670 -2.14059200 77.41034884
2242842836 -2.12326380 75.91782211
2243830002 -2.11937871 74.33462775
2244817168 -2.06069593 72.87295454
2245804334 -2.01335831 71.39921171
2246791500 -1.96780239 69.83143180
2247778666 -1.94395023 68.27456992
2248765832 -1.93893005 66.89005807
2249752998 -1.96464017 65.57367948
2250740164 -1.99462408 64.12489097
2251727330 -2.02589885 62.37956221
2252714496 -2.07000095 60.82192419
2253701662 -2.04725125 59.46743099
2254688828 -2.02242797 58.18483133
2255675994 -2.02470303 56.96823685
2256663160 -1.99303583 55.58044129
2257650326 -1.97584101 54.21639840
2258637492 -1.97926819 52.87285530
2259624658 -1.97307202 51.48047196
2260611824 -1.98148419 49.97446098
2261598990 -2.00451233 48.52548466
2262586156 -1.99089020 47.17166391
2263573322 -2.00101364 45.73012211
2264560488 -2.02044624 44.31529816
2265547654 -2.03001125 42.82814339
2266534820 -2.06047286 41.53859889
2267521986 -2.07874070 40.02304658
2268509152 -2.10775149 38.58376966
2269496318 -2.14771055 37.07104120
2270483484 -2.16295542 35.30951839
2271470650 -2.16622394 33.92343491
2272457816 -2.16921127 32.75043881
2273444982 -2.20053590 31.41606613
2274432148 -2.22563790 29.74495089
2275419314 -2.24788867 27.96618150
2276406480 -2.26419733 26.29572277
2277393646 -2.31793841 24.81656715
2278380812 -2.37767508 23.40682375
2279367978 -2.39847787 21.96611131
2280355144 -2.44137168 20.24815915
2281342310 -2.52403877 18.57828679
2282329476 -2.59719656 16.86830421
2283316642 -2.60373126 15.17802698
2284303808 -2.59647015 13.72402491
2285290974 -2.61018277 12.14524314
2286278140 -2.61161409 10.65065935
2287265306 -2.60076757 9.33125334
2288252472 -2.61689839 7.82224225
2289239638 -2.61622447 6.08100636
2290226804 -2.62189976 4.11557711
2291213970 -2.65388614 2.37338791
2292201136 -2.68010856 0.53889387
2293188302 -2.69190536 -1.10549420
2294175468 -2.74444839 -2.65049873
2295162634 -2.76623866 -4.14750939
2296149800 -2.74993293 -5.75277581
2297136966 -2.73866300 -7.48956619
2298124132 -2.73865541 -9.11225782
2299111298 -2.75163751 -10.99051948
2300098464 -2.78247352 -12.90168975
2301085630 -2.79529923 -14.65377656
2302072796 -2.80268341 -16.07869421
2303059962 -2.82153945 -17.52786902
2304047128 -2.83736755 -18.93747055
2305034294 -2.84005976 -20.66289800
2306021460 -2.83733189 -22.19595521
2307008626 -2.86508471 -23.91948503
2307995792 -2.89623343 -25.56489555
2308982958 -2.89302684 -27.30627823
2309970124 -2.91899572 -29.17629228
2310957290 -2.92118278 -31.05789145
2311944456 -2.90525927 -32.71446992
2312931622 -2.90527481 -34.43188765
2313918788 -2.89852267 -36.27923981
2314905954 -2.89655705 -38.03700170
2315893120 -2.88175505 -39.57203219
2316880286 -2.92316315 -41.18050135
2317867452 -2.98133435 -42.56381378
2318854618 -2.98579683 -44.16972337
2319841784 -3.01645510 -45.86316757
2320828950 -3.08202325 -47.61398785
2321816116 -3.19658423 -49.37723416
2322803282 -3.19418451 -51.00629347
2323790448 -3.20296954 -52.43192266
2324777614 -3.19503901 -53.79835711
2325764780 -3.23410927 -55.46721240
2326751946 -3.28495886 -56.98079522
2327739112 -3.36790874 -58.70912265
2328726278 -3.39446137 -60.61971200
2329713444 -3.40306260 -62.51398372
2330700610 -3.40720930 -64.43596762
2331687776 -3.40985336 -66.50361833
2332674942 -3.46993090 -68.41343816
2333662108 -3.60388676 -70.17654454
2334649274 -3.65886065 -71.92862417
2335636440 -3.62735980 -73.60517895
2336623606 -3.62976564 -75.27472642
2337610772 -3.67378968 -76.88631920
2338597938 -3.74594053 -79.17135707
2339585104 -3.80516180 -81.36352208
2340572270 -3.86840745 -83.29457883
2341559436 -3.89239646 -85.26173521
2342546602 -3.94631227 -87.48736915
2343533768 -4.07201287 -89.48184883
2344520934 -4.17444394 -91.27785614
2345508100 -4.25838917 -93.60188286
2346495266 -4.32990904 -95.83701397
2347482432 -4.36845634 -98.00275183
2348469598 -4.37984130 -100.23787434
2349456764 -4.43817980 -102.52214549
2350443930 -4.51456342 -104.77726915
2351431096 -4.61704077 -106.71488664
2352418262 -4.65966191 -109.15343862
2353405428 -4.72456755 -111.80687605
2354392594 -4.77113241 -114.36241633
2355379760 -4.83416465 -116.67836222
2356366926 -4.92451343 -118.86021088
2357354092 -4.98592583 -121.56947790
2358341258 -5.06615937 -124.32408376
2359328424 -5.10243322 -126.61388388
2360315590 -5.11592386 -128.82224864
2361302756 -5.14101804 -130.88566181
2362289922 -5.21644910 -133.16401200
2363277088 -5.31637308 -135.93218913
2364264254 -5.36745847 -138.39467158
2365251420 -5.44788039 -140.76705641
2366238586 -5.52772077 -143.40670372
2367225752 -5.58921947 -146.02126405
2368212918 -5.57150595 -148.79255134
2369200084 -5.52148069 -151.56286127
2370187250 -5.52715284 -154.56534113
2371174416 -5.56822970 -157.17067214
2372161582 -5.62494620 -159.96242112
2373148748 -5.64441682 -162.71881791
2374135914 -5.64605856 -165.12299172
2375123080 -5.70244602 -167.49029409
2376110246 -5.75260398 -169.77814151
2377097412 -5.83146202 -172.65194155
2378084578 -5.89684660 -175.88646231
2379071744 -5.94255960 -178.64003253
2380058910 -6.00404023 179.26166741
2381046076 -6.08038756 176.92980281
2382033242 -6.09278108 174.43571427
2383020408 -6.04986541 172.24723093
2384007574 -6.04012675 169.57491833
2384994740 -6.03788965 167.12256347
2385981906 -6.10676583 164.56064619
2386969072 -6.15828064 161.63391174
2387956238 -6.23712357 159.02004244
2388943404 -6.30640873 156.42555754
2389930570 -6.37307473 153.50320922
2390917736 -6.48759706 150.02548057
2391904902 -6.50519680 147.12918853
2392892068 -6.55411464 144.49912922
2393879234 -6.57479784 142.20963427
2394866400 -6.65137430 139.59439354
2395853566 -6.73715860 136.66465542
2396840732 -6.82644941 133.86071084
2397827898 -6.88439467 130.59765884
2398815064 -6.96288912 127.26930633
2399802230 -6.99401645 123.82606499
2400789396 -7.05588707 120.92082832
2401776562 -7.10649510 118.52984500
2402763728 -7.17037506 115.91112061
2403750894 -7.19867235 112.75104542
2404738060 -7.25365559 109.71883804
2405725226 -7.27228327 106.74608586
2406712392 -7.29315250 103.81733584
2407699558 -7.35418067 100.75094137
2408686724 -7.39539450 97.89326352
2409673890 -7.43412948 94.73997013
2410661056 -7.47340558 91.55840387
2411648222 -7.52254772 88.31979464
2412635388 -7.53859359 85.26887467
2413622554 -7.61563825 82.46167115
2414609720 -7.67582239 79.36815610
2415596886 -7.68634843 76.57688745
2416584052 -7.72725598 73.31653978
2417571218 -7.77680793 69.88480039
2418558384 -7.79733604 67.07876383
2419545550 -7.81030867 64.63080619
2420532716 -7.87365415 62.23890288
2421519882 -7.88340903 59.18585114
2422507048 -7.89275030 55.83658506
2423494214 -7.91891934 52.89489944
2424481380 -7.93391044 50.00598598
2425468546 -8.01295845 47.26724984
2426455712 -8.09554007 44.27297811
2427442878 -8.20676489 40.82339626
2428430044 -8.21649776 38.01232019
2429417210 -8.23061909 35.86115253
2430404376 -8.28071039 33.32676507
2431391542 -8.35511502 30.34752274
2432378708 -8.49631174 27.68784330
2433365874 -8.62812408 24.64277040
2434353040 -8.78095668 21.11689051
2435340206 -8.82177039 17.70639965
2436327372 -8.92945699 14.62359353
2437314538 -9.06677948 12.77471146
2438301704 -9.24346322 10.19667725
2439288870 -9.36512369 7.28376050
2440276036 -9.44543866 4.23848296
2441263202 -9.58361662 1.26834153
2442250368 -9.76646129 -1.71408314
2443237534 -9.96918213 -5.29343182
2444224700 -10.14081311 -9.17582580
2445211866 -10.36316896 -12.92179402
2446199032 -10.46790082 -16.68935294
2447186198 -10.50835606 -20.65454498
2448173364 -10.54342369 -24.30690377
2449160530 -10.71498396 -27.83391938
2450147696 -10.87659850 -31.91786110
2451134862 -10.98891687 -36.45650868
2452122028 -11.10334386 -41.06228799
2453109194 -11.23610651 -45.59079278
2454096360 -11.29600912 -49.62189679
2455083526 -11.31104693 -53.52751955
2456070692 -11.36434944 -57.73022955
2457057858 -11.38582350 -61.33273789
2458045024 -11.41364612 -64.91532732
2459032190 -11.46478234 -68.94055451
2460019356 -11.35485195 -72.48575253
2461006522 -11.30948783 -76.12235260
2461993688 -11.29864579 -80.21037257
2462980854 -11.32432665 -84.89151237
2463968020 -11.29815374 -90.21165352
2464955186 -11.31456896 -94.59934684
2465942352 -11.26653485 -99.09204823
2466929518 -11.16215224 -102.75311412
2467916684 -11.05229887 -106.46620090
2468903850 -11.01098633 -110.12663470
2469891016 -11.04490485 -114.25922387
2470878182 -10.97051640 -118.16517103
2471865348 -10.90762404 -122.57096545
2472852514 -10.85210601 -126.90241137
2473839680 -10.70536023 -130.44318466
2474826846 -10.67443954 -134.43157767
2475814012 -10.58458706 -138.06155629
2476801178 -10.40975700 -141.26941985
2477788344 -10.37379534 -144.68198097
2478775510 -10.20220746 -148.21559927
2479762676 -9.98942450 -152.00751829
2480749842 -9.73556994 -154.96435126
2481737008 -9.51071064 -158.47225593
2482724174 -9.35092617 -162.20412242
2483711340 -9.22828322 -165.49558776
2484698506 -9.07779840 -169.28372259
2485685672 -8.86737785 -172.65369459
2486672838 -8.73188556 -175.66369347
2487660004 -8.63983466 -179.13912561
2488647170 -8.46930879 177.54347140
2489634336 -8.30952008 174.76416580
2490621502 -8.17515395 172.16830884
2491608668 -8.02707647 169.75257005
2492595834 -7.84178986 166.99228817
2493583000 -7.62876459 164.25129615
2494570166 -7.39079042 161.07385218
2495557332 -7.17416577 158.09707435
2496544498 -6.97665677 155.77282010
2497531664 -6.82088960 154.05446744
2498518830 -6.66259571 152.12464587
2499505996 -6.56443382 149.71359416
2500493162 -6.43341921 147.09919776
2501480328 -6.32882991 144.35424020
2502467494 -6.18433470 141.84766341
2503454660 -5.95581366 139.63383519
2504441826 -5.73758904 137.12157989
2505428992 -5.55501783 135.17283106
2506416158 -5.43378226 133.58369806
2507403324 -5.28031629 131.77616795
2508390490 -5.16559139 129.59597451
2509377656 -5.01792236 127.64251682
2510364822 -4.87695883 126.00479452
2511351988 -4.73605007 124.25995248
2512339154 -4.64005741 122.32844718
2513326320 -4.53707572 120.12559066
2514313486 -4.41497063 118.01457882
2515300652 -4.35230482 116.78704409
2516287818 -4.34809748 115.23375704
2517274984 -4.26415644 113.89837891
2518262150 -4.18571111 112.25694450
2519249316 -4.11406040 110.67684649
2520236482 -4.04409846 108.92843403
2521223648 -3.97280048 106.99275532
2522210814 -3.93880261 105.15077875
2523197980 -3.95532461 103.06583971
2524185146 -3.87701350 101.29953877
2525172312 -3.78055246 99.66639574
2526159478 -3.70199728 98.16589262
2527146644 -3.70329047 96.93425683
2528133810 -3.74020769 95.59719192
2529120976 -3.74637029 94.24899826
2530108142 -3.70681731 92.30189733
2531095308 -3.67823548 90.30313133
2532082474 -3.69329714 88.38241163
2533069640 -3.63501995 86.85347623
2534056806 -3.49584634 85.45040939
2535043972 -3.37026697 84.08645449
2536031138 -3.38674167 82.45932199
2537018304 -3.40655990 80.85835590
2538005470 -3.47067763 79.04157262
2538992636 -3.48088800 77.39815405
2539979802 -3.44520510 75.83530157
2540966968 -3.40763784 74.51341770
2541954134 -3.35080585 72.57052119
2542941300 -3.30270977 70.74458557
2543928466 -3.26080874 69.01381668
2544915632 -3.25378252 67.50392539
2545902798 -3.29113714 66.21551943
2546889964 -3.35894837 64.92186186
